 
(1494460695.462476) vcan0 08A#4836
(1494460695.462574) vcan0 076#F45A
(1494460695.462693) vcan0 08E#0875
(1494460695.462836) vcan0 07A#5045
(1494460695.462943) vcan0 07E#F851
(1494460695.463045) vcan0 082#3054
(1494460695.463160) vcan0 086#BC73
(1494460695.463259) vcan0 066#4C33
(1494460695.463364) vcan0 06A#8437
(1494460695.463469) vcan0 06E#FC48
(1494460695.463574) vcan0 072#4060
(1494460695.463683) vcan0 090#8503
(1494460695.463786) vcan0 091#8403
(1494460695.463902) vcan0 092#9103
(1494460695.463999) vcan0 093#7303
(1494460695.464104) vcan0 094#2D03
(1494460695.464207) vcan0 095#2B03
(1494460695.464313) vcan0 096#2F03
(1494460695.464422) vcan0 097#3603
(1494460695.464526) vcan0 098#560A
(1494460695.464631) vcan0 099#1716
(1494460695.464749) vcan0 09A#270D
(1494460695.464849) vcan0 09B#0E12
(1494460695.466236) vcan0 08B#7C41
(1494460695.466340) vcan0 077#5061
(1494460695.466454) vcan0 08F#6065
(1494460695.466592) vcan0 07B#3043
(1494460695.466695) vcan0 07F#5869
(1494460695.466800) vcan0 083#CC6C
(1494460695.466909) vcan0 087#006D
(1494460695.467015) vcan0 067#0C38
(1494460695.467120) vcan0 06B#D03C
(1494460695.467225) vcan0 06F#F851
(1494460695.467339) vcan0 073#006E
(1494460695.467437) vcan0 090#8503
(1494460695.467542) vcan0 091#8403
(1494460695.467647) vcan0 092#9103
(1494460695.467754) vcan0 093#7303
(1494460695.467859) vcan0 094#2D03
(1494460695.467964) vcan0 095#2B03
(1494460695.468069) vcan0 096#2F03
(1494460695.468177) vcan0 097#3603
(1494460695.468281) vcan0 098#560A
(1494460695.468387) vcan0 099#1716
(1494460695.468491) vcan0 09A#270D
(1494460695.468598) vcan0 09B#0E12
(1494460695.469967) vcan0 088#4425
(1494460695.470076) vcan0 074#5061
(1494460695.470197) vcan0 08C#FC39
(1494460695.470337) vcan0 078#5045
(1494460695.470442) vcan0 07C#4446
(1494460695.470544) vcan0 080#2C48
(1494460695.470650) vcan0 084#4475
(1494460695.470757) vcan0 064#0C38
(1494460695.470863) vcan0 068#E03D
(1494460695.470969) vcan0 06C#8052
(1494460695.471075) vcan0 070#006E
(1494460695.471180) vcan0 090#8503
(1494460695.471285) vcan0 091#8403
(1494460695.471391) vcan0 092#9103
(1494460695.471497) vcan0 093#7303
(1494460695.471603) vcan0 094#2D03
(1494460695.471709) vcan0 095#2B03
(1494460695.471814) vcan0 096#2F03
(1494460695.471921) vcan0 097#3603
(1494460695.472025) vcan0 098#560A
(1494460695.472132) vcan0 099#1716
(1494460695.472235) vcan0 09A#270D
(1494460695.472343) vcan0 09B#0E12
(1494460695.473706) vcan0 089#2C50
(1494460695.473819) vcan0 075#5061
(1494460695.473942) vcan0 08D#907B
(1494460695.474083) vcan0 079#C83C
(1494460695.474187) vcan0 07D#1878
(1494460695.474291) vcan0 081#E87F
(1494460695.474395) vcan0 085#BC54
(1494460695.474503) vcan0 065#0C38
(1494460695.474608) vcan0 069#583D
(1494460695.474717) vcan0 06D#F851
(1494460695.474818) vcan0 071#1C70
(1494460695.474925) vcan0 090#8503
(1494460695.475029) vcan0 091#8403
(1494460695.475135) vcan0 092#9103
(1494460695.475242) vcan0 093#7303
(1494460695.475347) vcan0 094#2D03
(1494460695.475453) vcan0 095#2B03
(1494460695.475558) vcan0 096#2F03
(1494460695.475665) vcan0 097#3603
(1494460695.475770) vcan0 098#560A
(1494460695.475875) vcan0 099#1716
(1494460695.475981) vcan0 09A#270D
(1494460695.476087) vcan0 09B#0E12
